<Qucs Dataset 1.0.1>
<indep time 208>
0.000000000000e+00
2.500000000000e-06
5.000000000000e-06
1.000000000000e-05
2.000000000000e-05
4.000000000000e-05
8.000000000000e-05
1.600000000000e-04
3.200000000000e-04
5.700000000000e-04
8.200000000000e-04
1.070000000000e-03
1.320000000000e-03
1.570000000000e-03
1.820000000000e-03
2.070000000000e-03
2.320000000000e-03
2.570000000000e-03
2.820000000000e-03
3.070000000000e-03
3.320000000000e-03
3.570000000000e-03
3.820000000000e-03
4.070000000000e-03
4.320000000000e-03
4.570000000000e-03
4.820000000000e-03
5.070000000000e-03
5.320000000000e-03
5.570000000000e-03
5.820000000000e-03
6.070000000000e-03
6.320000000000e-03
6.570000000000e-03
6.820000000000e-03
7.070000000000e-03
7.320000000000e-03
7.570000000000e-03
7.820000000000e-03
8.070000000000e-03
8.320000000000e-03
8.570000000000e-03
8.820000000000e-03
9.070000000000e-03
9.320000000000e-03
9.570000000000e-03
9.820000000000e-03
1.007000000000e-02
1.032000000000e-02
1.057000000000e-02
1.082000000000e-02
1.107000000000e-02
1.132000000000e-02
1.157000000000e-02
1.182000000000e-02
1.207000000000e-02
1.232000000000e-02
1.257000000000e-02
1.282000000000e-02
1.307000000000e-02
1.332000000000e-02
1.357000000000e-02
1.382000000000e-02
1.407000000000e-02
1.432000000000e-02
1.457000000000e-02
1.482000000000e-02
1.507000000000e-02
1.532000000000e-02
1.557000000000e-02
1.582000000000e-02
1.607000000000e-02
1.632000000000e-02
1.657000000000e-02
1.682000000000e-02
1.707000000000e-02
1.732000000000e-02
1.757000000000e-02
1.782000000000e-02
1.807000000000e-02
1.832000000000e-02
1.857000000000e-02
1.882000000000e-02
1.907000000000e-02
1.932000000000e-02
1.957000000000e-02
1.982000000000e-02
2.007000000000e-02
2.032000000000e-02
2.057000000000e-02
2.082000000000e-02
2.107000000000e-02
2.132000000000e-02
2.157000000000e-02
2.182000000000e-02
2.207000000000e-02
2.232000000000e-02
2.257000000000e-02
2.282000000000e-02
2.307000000000e-02
2.332000000000e-02
2.357000000000e-02
2.382000000000e-02
2.407000000000e-02
2.432000000000e-02
2.457000000000e-02
2.482000000000e-02
2.507000000000e-02
2.532000000000e-02
2.557000000000e-02
2.582000000000e-02
2.607000000000e-02
2.632000000000e-02
2.657000000000e-02
2.682000000000e-02
2.707000000000e-02
2.732000000000e-02
2.757000000000e-02
2.782000000000e-02
2.807000000000e-02
2.832000000000e-02
2.857000000000e-02
2.882000000000e-02
2.907000000000e-02
2.932000000000e-02
2.957000000000e-02
2.982000000000e-02
3.007000000000e-02
3.032000000000e-02
3.057000000000e-02
3.082000000000e-02
3.107000000000e-02
3.132000000000e-02
3.157000000000e-02
3.182000000000e-02
3.207000000000e-02
3.232000000000e-02
3.257000000000e-02
3.282000000000e-02
3.307000000000e-02
3.332000000000e-02
3.357000000000e-02
3.382000000000e-02
3.407000000000e-02
3.432000000000e-02
3.457000000000e-02
3.482000000000e-02
3.507000000000e-02
3.532000000000e-02
3.557000000000e-02
3.582000000000e-02
3.607000000000e-02
3.632000000000e-02
3.657000000000e-02
3.682000000000e-02
3.707000000000e-02
3.732000000000e-02
3.757000000000e-02
3.782000000000e-02
3.807000000000e-02
3.832000000000e-02
3.857000000000e-02
3.882000000000e-02
3.907000000000e-02
3.932000000000e-02
3.957000000000e-02
3.982000000000e-02
4.007000000000e-02
4.032000000000e-02
4.057000000000e-02
4.082000000000e-02
4.107000000000e-02
4.132000000000e-02
4.157000000000e-02
4.182000000000e-02
4.207000000000e-02
4.232000000000e-02
4.257000000000e-02
4.282000000000e-02
4.307000000000e-02
4.332000000000e-02
4.357000000000e-02
4.382000000000e-02
4.407000000000e-02
4.432000000000e-02
4.457000000000e-02
4.482000000000e-02
4.507000000000e-02
4.532000000000e-02
4.557000000000e-02
4.582000000000e-02
4.607000000000e-02
4.632000000000e-02
4.657000000000e-02
4.682000000000e-02
4.707000000000e-02
4.732000000000e-02
4.757000000000e-02
4.782000000000e-02
4.807000000000e-02
4.832000000000e-02
4.857000000000e-02
4.882000000000e-02
4.907000000000e-02
4.932000000000e-02
4.957000000000e-02
4.982000000000e-02
5.000000000000e-02
</indep>
<dep tran.v(input) time>
0.000000000000e+00
1.570795680831e-03
3.141587485880e-03
6.283143965559e-03
1.256603988335e-02
2.513009544334e-02
5.024431817977e-02
1.003617148512e-01
1.997099805144e-01
3.505343201913e-01
4.927273415483e-01
6.227877804881e-01
7.375131173582e-01
8.340784336132e-01
9.101059706850e-01
9.637236782900e-01
9.936113105200e-01
9.990329346781e-01
9.798550523842e-01
9.365498867482e-01
8.701837546695e-01
7.823908105766e-01
6.753328081210e-01
5.516458706284e-01
4.143755809933e-01
2.669019893204e-01
1.128563848735e-01
-4.396811831787e-02
-1.997099805144e-01
-3.505343201913e-01
-4.927273415483e-01
-6.227877804881e-01
-7.375131173582e-01
-8.340784336132e-01
-9.101059706850e-01
-9.637236782900e-01
-9.936113105200e-01
-9.990329346781e-01
-9.798550523842e-01
-9.365498867482e-01
-8.701837546695e-01
-7.823908105766e-01
-6.753328081210e-01
-5.516458706284e-01
-4.143755809933e-01
-2.669019893204e-01
-1.128563848735e-01
4.396811831787e-02
1.997099805144e-01
3.505343201913e-01
4.927273415483e-01
6.227877804881e-01
7.375131173582e-01
8.340784336132e-01
9.101059706850e-01
9.637236782900e-01
9.936113105200e-01
9.990329346781e-01
9.798550523842e-01
9.365498867482e-01
8.701837546695e-01
7.823908105766e-01
6.753328081210e-01
5.516458706284e-01
4.143755809933e-01
2.669019893204e-01
1.128563848735e-01
-4.396811831787e-02
-1.997099805144e-01
-3.505343201913e-01
-4.927273415483e-01
-6.227877804881e-01
-7.375131173582e-01
-8.340784336132e-01
-9.101059706850e-01
-9.637236782900e-01
-9.936113105200e-01
-9.990329346781e-01
-9.798550523842e-01
-9.365498867482e-01
-8.701837546695e-01
-7.823908105766e-01
-6.753328081210e-01
-5.516458706284e-01
-4.143755809933e-01
-2.669019893204e-01
-1.128563848735e-01
4.396811831787e-02
1.997099805144e-01
3.505343201913e-01
4.927273415483e-01
6.227877804881e-01
7.375131173582e-01
8.340784336132e-01
9.101059706850e-01
9.637236782900e-01
9.936113105200e-01
9.990329346781e-01
9.798550523842e-01
9.365498867482e-01
8.701837546695e-01
7.823908105766e-01
6.753328081210e-01
5.516458706284e-01
4.143755809933e-01
2.669019893204e-01
1.128563848735e-01
-4.396811831788e-02
-1.997099805144e-01
-3.505343201913e-01
-4.927273415483e-01
-6.227877804881e-01
-7.375131173582e-01
-8.340784336132e-01
-9.101059706850e-01
-9.637236782900e-01
-9.936113105200e-01
-9.990329346781e-01
-9.798550523842e-01
-9.365498867482e-01
-8.701837546695e-01
-7.823908105766e-01
-6.753328081210e-01
-5.516458706284e-01
-4.143755809933e-01
-2.669019893204e-01
-1.128563848735e-01
4.396811831788e-02
1.997099805144e-01
3.505343201913e-01
4.927273415483e-01
6.227877804881e-01
7.375131173582e-01
8.340784336132e-01
9.101059706850e-01
9.637236782900e-01
9.936113105200e-01
9.990329346781e-01
9.798550523842e-01
9.365498867482e-01
8.701837546695e-01
7.823908105766e-01
6.753328081210e-01
5.516458706284e-01
4.143755809933e-01
2.669019893204e-01
1.128563848735e-01
-4.396811831788e-02
-1.997099805144e-01
-3.505343201913e-01
-4.927273415483e-01
-6.227877804881e-01
-7.375131173582e-01
-8.340784336132e-01
-9.101059706850e-01
-9.637236782900e-01
-9.936113105200e-01
-9.990329346781e-01
-9.798550523842e-01
-9.365498867482e-01
-8.701837546695e-01
-7.823908105766e-01
-6.753328081210e-01
-5.516458706284e-01
-4.143755809933e-01
-2.669019893204e-01
-1.128563848735e-01
4.396811831788e-02
1.997099805144e-01
3.505343201913e-01
4.927273415483e-01
6.227877804881e-01
7.375131173582e-01
8.340784336132e-01
9.101059706850e-01
9.637236782900e-01
9.936113105200e-01
9.990329346781e-01
9.798550523842e-01
9.365498867482e-01
8.701837546695e-01
7.823908105766e-01
6.753328081210e-01
5.516458706284e-01
4.143755809933e-01
2.669019893204e-01
1.128563848735e-01
-4.396811831788e-02
-1.997099805144e-01
-3.505343201913e-01
-4.927273415483e-01
-6.227877804881e-01
-7.375131173582e-01
-8.340784336132e-01
-9.101059706850e-01
-9.637236782900e-01
-9.936113105200e-01
-9.990329346781e-01
-9.798550523842e-01
-9.365498867482e-01
-8.701837546695e-01
-7.823908105766e-01
-6.753328081210e-01
-5.516458706284e-01
-4.143755809933e-01
-2.669019893204e-01
-1.128563848735e-01
-1.224646799147e-15
</dep>
<dep tran.v(jfet) time>
9.000000000000e+00
9.000000000000e+00
9.000000000000e+00
9.000000000000e+00
9.000000000000e+00
9.000000000000e+00
9.000000000000e+00
9.000000000000e+00
9.000000000000e+00
9.000000000000e+00
9.000000000000e+00
9.000000000000e+00
9.000000000000e+00
9.000000000000e+00
9.000000000000e+00
9.000000000000e+00
9.000000000000e+00
9.000000000000e+00
9.000000000000e+00
9.000000000000e+00
9.000000000000e+00
9.000000000000e+00
9.000000000000e+00
9.000000000000e+00
9.000000000000e+00
9.000000000000e+00
9.000000000000e+00
9.000000000000e+00
9.000000000000e+00
9.000000000000e+00
9.000000000000e+00
9.000000000000e+00
9.000000000000e+00
9.000000000000e+00
9.000000000000e+00
9.000000000000e+00
9.000000000000e+00
9.000000000000e+00
9.000000000000e+00
9.000000000000e+00
9.000000000000e+00
9.000000000000e+00
9.000000000000e+00
9.000000000000e+00
9.000000000000e+00
9.000000000000e+00
9.000000000000e+00
9.000000000000e+00
9.000000000000e+00
9.000000000000e+00
9.000000000000e+00
9.000000000000e+00
9.000000000000e+00
9.000000000000e+00
9.000000000000e+00
9.000000000000e+00
9.000000000000e+00
9.000000000000e+00
9.000000000000e+00
9.000000000000e+00
9.000000000000e+00
9.000000000000e+00
9.000000000000e+00
9.000000000000e+00
9.000000000000e+00
9.000000000000e+00
9.000000000000e+00
9.000000000000e+00
9.000000000000e+00
9.000000000000e+00
9.000000000000e+00
9.000000000000e+00
9.000000000000e+00
9.000000000000e+00
9.000000000000e+00
9.000000000000e+00
9.000000000000e+00
9.000000000000e+00
9.000000000000e+00
9.000000000000e+00
9.000000000000e+00
9.000000000000e+00
9.000000000000e+00
9.000000000000e+00
9.000000000000e+00
9.000000000000e+00
9.000000000000e+00
9.000000000000e+00
9.000000000000e+00
9.000000000000e+00
9.000000000000e+00
9.000000000000e+00
9.000000000000e+00
9.000000000000e+00
9.000000000000e+00
9.000000000000e+00
9.000000000000e+00
9.000000000000e+00
9.000000000000e+00
9.000000000000e+00
9.000000000000e+00
9.000000000000e+00
9.000000000000e+00
9.000000000000e+00
9.000000000000e+00
9.000000000000e+00
9.000000000000e+00
9.000000000000e+00
9.000000000000e+00
9.000000000000e+00
9.000000000000e+00
9.000000000000e+00
9.000000000000e+00
9.000000000000e+00
9.000000000000e+00
9.000000000000e+00
9.000000000000e+00
9.000000000000e+00
9.000000000000e+00
9.000000000000e+00
9.000000000000e+00
9.000000000000e+00
9.000000000000e+00
9.000000000000e+00
9.000000000000e+00
9.000000000000e+00
9.000000000000e+00
9.000000000000e+00
9.000000000000e+00
9.000000000000e+00
9.000000000000e+00
9.000000000000e+00
9.000000000000e+00
9.000000000000e+00
9.000000000000e+00
9.000000000000e+00
9.000000000000e+00
9.000000000000e+00
9.000000000000e+00
9.000000000000e+00
9.000000000000e+00
9.000000000000e+00
9.000000000000e+00
9.000000000000e+00
9.000000000000e+00
9.000000000000e+00
9.000000000000e+00
9.000000000000e+00
9.000000000000e+00
9.000000000000e+00
9.000000000000e+00
9.000000000000e+00
9.000000000000e+00
9.000000000000e+00
9.000000000000e+00
9.000000000000e+00
9.000000000000e+00
9.000000000000e+00
9.000000000000e+00
9.000000000000e+00
9.000000000000e+00
9.000000000000e+00
9.000000000000e+00
9.000000000000e+00
9.000000000000e+00
9.000000000000e+00
9.000000000000e+00
9.000000000000e+00
9.000000000000e+00
9.000000000000e+00
9.000000000000e+00
9.000000000000e+00
9.000000000000e+00
9.000000000000e+00
9.000000000000e+00
9.000000000000e+00
9.000000000000e+00
9.000000000000e+00
9.000000000000e+00
9.000000000000e+00
9.000000000000e+00
9.000000000000e+00
9.000000000000e+00
9.000000000000e+00
9.000000000000e+00
9.000000000000e+00
9.000000000000e+00
9.000000000000e+00
9.000000000000e+00
9.000000000000e+00
9.000000000000e+00
9.000000000000e+00
9.000000000000e+00
9.000000000000e+00
9.000000000000e+00
9.000000000000e+00
9.000000000000e+00
9.000000000000e+00
9.000000000000e+00
9.000000000000e+00
9.000000000000e+00
9.000000000000e+00
9.000000000000e+00
9.000000000000e+00
9.000000000000e+00
9.000000000000e+00
9.000000000000e+00
9.000000000000e+00
</dep>
<dep tran.v(output) time>
0.000000000000e+00
0.000000000000e+00
0.000000000000e+00
0.000000000000e+00
1.776356839400e-15
7.105427357601e-15
1.243449787580e-14
1.953992523340e-14
1.953992523340e-14
1.953992523340e-14
1.953992523340e-14
1.953992523340e-14
1.953992523340e-14
1.953992523340e-14
1.953992523340e-14
1.953992523340e-14
1.953992523340e-14
1.953992523340e-14
1.953992523340e-14
1.953992523340e-14
1.953992523340e-14
1.953992523340e-14
1.953992523340e-14
1.953992523340e-14
1.953992523340e-14
1.953992523340e-14
1.953992523340e-14
1.953992523340e-14
1.953992523340e-14
1.953992523340e-14
1.953992523340e-14
1.953992523340e-14
1.953992523340e-14
1.953992523340e-14
1.953992523340e-14
1.953992523340e-14
1.953992523340e-14
1.953992523340e-14
1.953992523340e-14
1.953992523340e-14
1.953992523340e-14
1.953992523340e-14
1.953992523340e-14
1.953992523340e-14
1.953992523340e-14
1.953992523340e-14
1.953992523340e-14
1.953992523340e-14
1.953992523340e-14
1.953992523340e-14
1.953992523340e-14
1.953992523340e-14
1.953992523340e-14
1.953992523340e-14
1.953992523340e-14
1.953992523340e-14
1.953992523340e-14
1.953992523340e-14
1.953992523340e-14
1.953992523340e-14
1.953992523340e-14
1.953992523340e-14
1.953992523340e-14
1.953992523340e-14
1.953992523340e-14
1.953992523340e-14
1.953992523340e-14
1.953992523340e-14
1.953992523340e-14
1.953992523340e-14
1.953992523340e-14
1.953992523340e-14
1.953992523340e-14
1.953992523340e-14
1.953992523340e-14
1.953992523340e-14
1.953992523340e-14
1.953992523340e-14
1.953992523340e-14
1.953992523340e-14
1.953992523340e-14
1.953992523340e-14
1.953992523340e-14
1.953992523340e-14
1.953992523340e-14
1.953992523340e-14
1.953992523340e-14
1.953992523340e-14
1.953992523340e-14
1.953992523340e-14
1.953992523340e-14
1.953992523340e-14
1.953992523340e-14
1.953992523340e-14
1.953992523340e-14
1.953992523340e-14
1.953992523340e-14
1.953992523340e-14
1.953992523340e-14
1.953992523340e-14
1.953992523340e-14
1.953992523340e-14
1.953992523340e-14
1.953992523340e-14
1.953992523340e-14
1.953992523340e-14
1.953992523340e-14
1.953992523340e-14
1.953992523340e-14
1.953992523340e-14
1.953992523340e-14
1.953992523340e-14
1.953992523340e-14
1.953992523340e-14
1.953992523340e-14
1.953992523340e-14
1.953992523340e-14
1.953992523340e-14
1.953992523340e-14
1.953992523340e-14
1.953992523340e-14
1.953992523340e-14
1.953992523340e-14
1.953992523340e-14
1.953992523340e-14
1.953992523340e-14
1.953992523340e-14
1.953992523340e-14
1.953992523340e-14
1.953992523340e-14
1.953992523340e-14
1.953992523340e-14
1.953992523340e-14
1.953992523340e-14
1.953992523340e-14
1.953992523340e-14
1.953992523340e-14
1.953992523340e-14
1.953992523340e-14
1.953992523340e-14
1.953992523340e-14
1.953992523340e-14
1.953992523340e-14
1.953992523340e-14
1.953992523340e-14
1.953992523340e-14
1.953992523340e-14
1.953992523340e-14
1.953992523340e-14
1.953992523340e-14
1.953992523340e-14
1.953992523340e-14
1.953992523340e-14
1.953992523340e-14
1.953992523340e-14
1.953992523340e-14
1.953992523340e-14
1.953992523340e-14
1.953992523340e-14
1.953992523340e-14
1.953992523340e-14
1.953992523340e-14
1.953992523340e-14
1.953992523340e-14
1.953992523340e-14
1.953992523340e-14
1.953992523340e-14
1.953992523340e-14
1.953992523340e-14
1.953992523340e-14
1.953992523340e-14
1.953992523340e-14
1.953992523340e-14
1.953992523340e-14
1.953992523340e-14
1.953992523340e-14
1.953992523340e-14
1.953992523340e-14
1.953992523340e-14
1.953992523340e-14
1.953992523340e-14
1.953992523340e-14
1.953992523340e-14
1.953992523340e-14
1.953992523340e-14
1.953992523340e-14
1.953992523340e-14
1.953992523340e-14
1.953992523340e-14
1.953992523340e-14
1.953992523340e-14
1.953992523340e-14
1.953992523340e-14
1.953992523340e-14
1.953992523340e-14
1.953992523340e-14
1.953992523340e-14
1.953992523340e-14
1.953992523340e-14
1.953992523340e-14
1.953992523340e-14
1.953992523340e-14
1.953992523340e-14
1.953992523340e-14
1.953992523340e-14
1.953992523340e-14
1.953992523340e-14
1.953992523340e-14
</dep>
