<Qucs Dataset 0.0.20>
<indep acfrequency 20>
  +0.00000000000000000000e+00
  +1.57894736842105271535e+03
  +3.15789473684210543070e+03
  +4.73684210526315837342e+03
  +6.31578947368421086139e+03
  +7.89473684210526334937e+03
  +9.47368421052631674684e+03
  +1.10526315789473683253e+04
  +1.26315789473684217228e+04
  +1.42105263157894751203e+04
  +1.57894736842105266987e+04
  +1.73684210526315800962e+04
  +1.89473684210526334937e+04
  +2.05263157894736868911e+04
  +2.21052631578947366506e+04
  +2.36842105263157900481e+04
  +2.52631578947368434456e+04
  +2.68421052631578968430e+04
  +2.84210526315789502405e+04
  +3.00000000000000000000e+04
</indep>
<dep V1.i acfrequency>
  +0.00000000000000000000e+00
  -4.97527222029311856504e-07-j2.49516357265921162577e-10
  -4.97527315883013831509e-07-j1.24769180213404963673e-10
  -4.97527333274328927006e-07-j8.31916533285288845107e-11
  -4.97527339374289636217e-07-j6.24065479533253566489e-11
  -4.97527342211982781933e-07-j4.99384126309245985018e-11
  -4.97527343768584969981e-07-j4.16287602479837498468e-11
  -4.97527344722942285609e-07-j3.56953865704317467091e-11
  -4.97527345358627807029e-07-j3.12471860487976780397e-11
  -4.97527345811072149871e-07-j2.77891006909669999014e-11
  -4.97527346151669815434e-07-j2.50240951090923692619e-11
  -4.97527346420875203159e-07-j2.27631504511189607518e-11
  -4.97527346643055862751e-07-j2.08802473149060019064e-11
  -4.97527346833566701599e-07-j1.92881479280535355897e-11
  -4.97527347002450248205e-07-j1.79245370990772152214e-11
  -4.97527347156564187189e-07-j1.67437164982870172623e-11
  -4.97527347300746453108e-07-j1.57114148546139431473e-11
  -4.97527347438345049565e-07-j1.48014190012741020783e-11
  -4.97527347571853429799e-07-j1.39933480627016010774e-11
  -4.97527347703128184152e-07-j1.32711096390603075752e-11
</dep>
<dep V2.i acfrequency>
  +0.00000000000000000000e+00
  +5.20796506788156441337e-12+j1.64830372561854439677e-10
  +2.21795733280318815720e-11+j3.27884253168954330667e-10
  +4.98550765173688485556e-11+j4.87476505237925783680e-10
  +8.73699727312884603808e-11+j6.42107795743595220072e-10
  +1.33608821747091824793e-10+j7.90527178459256384465e-10
  +1.87283944519638661133e-10+j9.31773654027857666271e-10
  +2.47017527585221770239e-10+j1.06519132513878035963e-09
  +3.11418477278573972471e-10+j1.19042074295451988457e-09
  +3.79147602689718422555e-10+j1.30737145488184611404e-09
  +4.48967481188668305766e-10+j1.41618199487616988289e-09
  +5.19775991365663881478e-10+j1.51717356450031167228e-09
  +5.90624579152630499286e-10+j1.61080276428082154011e-09
  +6.60723647907787979485e-10+j1.69761737451113518996e-09
  +7.29438075673972103783e-10+j1.77821772364184035023e-09
  +7.96275903918913219386e-10+j1.85322488214618602677e-09
  +8.60872910444707169023e-10+j1.92325591171903021970e-09
  +9.22975270412465106159e-10+j1.98890571637641773368e-09
  +9.82421936725214870953e-10+j2.05073464922038872842e-09
  +1.03912785349005558380e-09+j2.10926086321779412373e-09
</dep>
<dep V3.i acfrequency>
  -0.00000000000000000000e+00
  +1.92552768417915559515e-06-j1.48350596081736577638e-10
  +1.92538745534625366565e-06-j2.78841864676307864379e-09
  +1.92515743087018040855e-06-j4.84268810647470389228e-09
  +1.92484545450250367997e-06-j6.71643431610215574304e-09
  +1.92446088683679883039e-06-j8.48279989774059552917e-09
  +1.92401446105463824797e-06-j1.01616398710185572374e-08
  +1.92351764723086269030e-06-j1.17594334081176432790e-08
  +1.92298202198451354512e-06-j1.32791582565708706400e-08
  +1.92241872862374677382e-06-j1.47233778116996874617e-08
  +1.92183806311312937337e-06-j1.60952344297397517537e-08
  +1.92124919541037535953e-06-j1.73986668703265040785e-08
  +1.92066001764521697461e-06-j1.86383184328036902682e-08
  +1.92007709934158094862e-06-j1.98193313511679782632e-08
  +1.91950572475145545763e-06-j2.09471181230355392679e-08
  +1.91894998698969893470e-06-j2.20271525293349611386e-08
  +1.91841291638745698462e-06-j2.30647984875883355923e-08
  +1.91789662476694759412e-06-j2.40651815571576119348e-08
  +1.91740245203689088331e-06-j2.50331008305251803843e-08
  +1.91693110585849191168e-06-j2.59729755583984259897e-08
</dep>
<dep POSTGAIN.v acfrequency>
  +0.00000000000000000000e+00
  +4.44352312133911286907e+00-j1.71877045234030106924e-01
  +4.41421587910610124794e+00-j3.65239250037523444092e-01
  +4.36637549865388407966e+00-j5.47112453336744852805e-01
  +4.30153447917021924951e+00-j7.18982427439178617412e-01
  +4.22163841605295697690e+00-j8.79490406107468758456e-01
  +4.12893029029699665244e+00-j1.02723630495958384579e+00
  +4.02580948347428080325e+00-j1.16119524092735004750e+00
  +3.91469833727324667549e+00-j1.28079999775645392290e+00
  +3.79792875565300347418e+00-j1.38592573618524728118e+00
  +3.67765541356574843235e+00-j1.47683333228143709448e+00
  +3.55579738117121602059e+00-j1.55409463620052590294e+00
  +3.43400632518933779380e+00-j1.61851312203708452842e+00
  +3.31365712568731485277e+00-j1.67104848302316044695e+00
  +3.19585568318411450406e+00-j1.71275027424088066574e+00
  +3.08145861641362728278e+00-j1.74470307626096832188e+00
  +2.97110012273151413709e+00-j1.76798373921453144675e+00
  +2.86522217156639902313e+00-j1.78363000181437714176e+00
  +2.76410518387770887117e+00-j1.79261905894443818177e+00
  +2.66789726172980934393e+00-j1.79585434335806026773e+00
</dep>
<dep _net9.v acfrequency>
  +0.00000000000000000000e+00
  +9.83550346378227469124e-01-j1.27391213240856619043e-03
  +9.83296447727869282751e-01-j4.34813235381104577770e-03
  +9.82881318280636073759e-01-j6.96427242416428494282e-03
  +9.82318501908155838898e-01-j9.40428298226402177573e-03
  +9.81624845127216372198e-01-j1.17102473384801935435e-02
  +9.80819735548594917596e-01-j1.38880099187057501342e-02
  +9.79923905945454309929e-01-j1.59364047532983242605e-02
  +9.78958285613460876817e-01-j1.78543754258345746533e-02
  +9.77943021814819957171e-01-j1.96429788030254640074e-02
  +9.76896730330801044140e-01-j2.13057498336073833367e-02
  +9.75835991275421310576e-01-j2.28484441483458554367e-02
  +9.74775074437282951223e-01-j2.42785466754848432147e-02
  +9.73725858246556108533e-01-j2.56047247271430321314e-02
  +9.72697897241839748439e-01-j2.68363144445992983511e-02
  +9.71698592259870430610e-01-j2.79828828819585484489e-02
  +9.70733422503225140687e-01-j2.90538810173781511526e-02
  +9.69806206401899184577e-01-j3.00583871316338208102e-02
  +9.68919366672622239811e-01-j3.10049313054715849902e-02
  +9.68074182850581554938e-01-j3.19013878324043986812e-02
</dep>
<dep _net10.v acfrequency>
  +0.00000000000000000000e+00
  +2.01837179222394302869e-01-j2.71149012596821111648e-03
  +2.01777050588097139894e-01-j2.11724081966282095743e-03
  +2.01690387826898381851e-01-j2.24568425143914724221e-03
  +2.01574390287832277968e-01-j2.54216475785621481842e-03
  +2.01431827073774355474e-01-j2.89281248159784475094e-03
  +2.01266506446746623604e-01-j3.25799148232372741060e-03
  +2.01082624165631801416e-01-j3.61996172844300653434e-03
  +2.00884450153211796541e-01-j3.96975605283506668280e-03
  +2.00676106556570477135e-01-j4.30272995313856539829e-03
  +2.00461406788250584565e-01-j4.61669190799062975628e-03
  +2.00243749232562745499e-01-j4.91096668511410532065e-03
  +2.00026059629957841945e-01-j5.18585258056491246043e-03
  +1.99810773839900007731e-01-j5.44227123694630745415e-03
  +1.99599851366159014576e-01-j5.68152629228189671312e-03
  +1.99394810101202052399e-01-j5.90513194078060195402e-03
  +1.99196773840309482306e-01-j6.11469074569431086941e-03
  +1.99006525743696843778e-01-j6.31180799102173863829e-03
  +1.98824562682767352895e-01-j6.49803367541272516167e-03
  +1.98651147029498681418e-01-j6.67482538716875593854e-03
</dep>
<dep _net11.v acfrequency>
  +0.00000000000000000000e+00
  +5.66562421063898213197e-06-j3.08246049574005271526e-03
  -4.40146379358440992735e-06-j1.54084796678801718393e-03
  -6.20511396097794096265e-06-j1.02679997585067555449e-03
  -6.76762283753086853102e-06-j7.69659238128471488542e-04
  -6.95665926001956714956e-06-j6.15292510170810358870e-04
  -6.98884462378626054369e-06-j5.12323032063210018205e-04
  -6.94073454340991306079e-06-j4.38732732253366666027e-04
  -6.84633773581205321555e-06-j3.83512635323739225265e-04
  -6.72358078787766691355e-06-j3.40546365763526076749e-04
  -6.58323020994857242366e-06-j3.06163615817959481463e-04
  -6.43239040299945159432e-06-j2.78028153786295426867e-04
  -6.27604630621876634963e-06-j2.54581887635016630191e-04
  -6.11781880304780211670e-06-j2.34745561147655648279e-04
  -5.96037513605725111342e-06-j2.17747756335299607082e-04
  -5.80567667437889566739e-06-j2.03022316321791021542e-04
  -5.65514405201671661416e-06-j1.90144246757163558467e-04
  -5.50977651896195997559e-06-j1.78788245564058734987e-04
  -5.37024323279713081705e-06-j1.68701056828354491396e-04
  -5.23695548996233764218e-06-j1.59682552969558455395e-04
</dep>
<dep _net1.v acfrequency>
  -0.00000000000000000000e+00
  +9.95024476271883062672e-01+j4.99002975582668378482e-04
  +9.95024663958669508546e-01+j2.49501425080016550877e-04
  +9.95024698715379463110e-01+j1.66334167226182144412e-04
  +9.95024710880098695043e-01+j1.24750498875666332443e-04
  +9.95024716510482964971e-01+j9.98002679371101479588e-05
  +9.95024719568811999437e-01+j8.31667560357762976082e-05
  +9.95024721412730128733e-01+j7.12856551101603933560e-05
  +9.95024722609341383261e-01+j6.23748110799890697871e-05
  +9.95024723429567603539e-01+j5.54441383285963053460e-05
  +9.95024724016100980961e-01+j4.98995854795672709762e-05
  +9.95024724449897646217e-01+j4.53631198360075172066e-05
  +9.95024724779661307039e-01+j4.15827195986520647443e-05
  +9.95024725036118828925e-01+j3.83839081365423807034e-05
  +9.95024725239432750179e-01+j3.56420592843438070415e-05
  +9.95024725403277576774e-01+j3.32657805205925153334e-05
  +9.95024725537191678804e-01+j3.11865274540738351928e-05
  +9.95024725647995711419e-01+j2.93518837855385817455e-05
  +9.95024725740668580798e-01+j2.77210812821911669549e-05
  +9.95024725818914657083e-01+j2.62619344970683929995e-05
</dep>
<dep _net8.v acfrequency>
  +0.00000000000000000000e+00
  +9.83675031175657688109e-01+j7.66551658362335974935e-04
  +9.83675526430702107383e-01-j2.94086255429246916197e-04
  +9.83675202310380192294e-01-j9.48682431938928155332e-04
  +9.83674597663433236683e-01-j1.50176820278342081083e-03
  +9.83673778875429616342e-01-j2.01424994341843936405e-03
  +9.83672762326442517988e-01-j2.50642981889276491789e-03
  +9.83671553628049477602e-01-j2.98700878746307888281e-03
  +9.83670155123198663993e-01-j3.46033735411425047088e-03
  +9.83668567929984027920e-01-j3.92883248896728175248e-03
  +9.83666792635967568437e-01-j4.39394439489870433646e-03
  +9.83664829573073884461e-01-j4.85659594691750708811e-03
  +9.83662678939466905703e-01-j5.31740241218419014413e-03
  +9.83660340858575010792e-01-j5.77678976080667552773e-03
  +9.83657815409724967104e-01-j6.23506227192411992266e-03
  +9.83655102645012879847e-01-j6.69244309728802937165e-03
  +9.83652202599031633135e-01-j7.14909961361683519987e-03
  +9.83649115294730980175e-01-j7.60515982702237962332e-03
  +9.83645840747067068399e-01-j8.06072330895410069096e-03
  +9.83642378965339125862e-01-j8.51586867966609879776e-03
</dep>
<dep _net7.v acfrequency>
  +0.00000000000000000000e+00
  +9.84166883505738887550e-01+j7.66934978590839804002e-04
  +9.84167379012527598903e-01-j2.94233237706641940611e-04
  +9.84167054736841184770e-01-j9.49156690579336490173e-04
  +9.84166449796643250103e-01-j1.50251898226001182231e-03
  +9.84165630610425390401e-01-j2.01525694261311862782e-03
  +9.84164613566138379852e-01-j2.50768288830907236028e-03
  +9.84163404277830777822e-01-j2.98850212837398990923e-03
  +9.84162005089284641635e-01-j3.46206734319803042035e-03
  +9.84160417118827735017e-01-j3.93079671144561364898e-03
  +9.84158640954015395685e-01-j4.39614116108289886692e-03
  +9.84156676926670526129e-01-j4.85902402849226582038e-03
  +9.84154525234825605651e-01-j5.32006088836617114374e-03
  +9.84152186001779227809e-01-j5.77967792367096826200e-03
  +9.84149659306743362919e-01-j6.23817956554417307052e-03
  +9.84146945201720968477e-01-j6.69578907716569804442e-03
  +9.84144043721233652278e-01-j7.15267391879498976026e-03
  +9.84140954888180874427e-01-j7.60896216040440193096e-03
  +9.84137678717487252023e-01-j8.06475342309450650424e-03
  +9.84134215218436025907e-01-j8.52012636630487818490e-03
</dep>
<dep _net6.v acfrequency>
  +0.00000000000000000000e+00
  +9.84167269885363515947e-01+j2.71157024434143245628e-04
  +9.84167304934833619967e-01-j5.42122341661788187395e-04
  +9.84166895388893236962e-01-j1.11441604101453206610e-03
  +9.84166260603723919154e-01-j1.62646342118855091741e-03
  +9.84165427603152620506e-01-j2.11441241347745667589e-03
  +9.84164403054380576563e-01-j2.59031236415385723859e-03
  +9.84163189240727653839e-01-j3.05932730843766487183e-03
  +9.84161787114702590884e-01-j3.52403928960974555107e-03
  +9.84160197129990033105e-01-j3.98588279898427766401e-03
  +9.84158419524090555264e-01-j4.44571855209310862200e-03
  +9.84156454430230809294e-01-j4.90409429557893405960e-03
  +9.84154301926967622904e-01-j5.36137521097193592290e-03
  +9.84151962062227214645e-01-j5.81781413212628661924e-03
  +9.84149434865765115887e-01-j6.27359166938611101383e-03
  +9.84146720356043114286e-01-j6.72884028401764255900e-03
  +9.84143818544183535124e-01-j7.18365933484648583329e-03
  +9.84140729436359107396e-01-j7.63812481427913331222e-03
  +9.84137453035280773683e-01-j8.09229583864378571034e-03
  +9.84133989341144377327e-01-j8.54621908992893308810e-03
</dep>
<dep _net4.v acfrequency>
  +0.00000000000000000000e+00
  +9.84167339167328236726e-01+j3.89865741798325343031e-05
  +9.84167242319175739063e-01-j6.58207573434800140982e-04
  +9.84166808347726740358e-01-j1.19180616367768089925e-03
  +9.84166165013610649837e-01-j1.68450597587722710434e-03
  +9.84165328056078925201e-01-j2.16084641800411234730e-03
  +9.84164301357826842853e-01-j2.62900732770310428116e-03
  +9.84163086248085017260e-01-j3.09249437919602125635e-03
  +9.84161683280827981335e-01-j3.55306043522283371283e-03
  +9.84160092719349899326e-01-j4.01167933122774985483e-03
  +9.84158314700874115033e-01-j4.46893538921526098373e-03
  +9.84156349301735122737e-01-j4.92520046903559532286e-03
  +9.84154196566263572699e-01-j5.38072249435622533553e-03
  +9.84151856520791845639e-01-j5.83567312051044145838e-03
  +9.84149329180907250780e-01-j6.29017497318434381376e-03
  +9.84146614555461596296e-01-j6.74431799156145848212e-03
  +9.84143712648873347781e-01-j7.19816964290529836407e-03
  +9.84140623462523400633e-01-j7.65178153195718562668e-03
  +9.84137346995622941392e-01-j8.10519380686127235980e-03
  +9.84133883245764784498e-01-j8.55843817472389835344e-03
</dep>
<dep _net5.v acfrequency>
  -0.00000000000000000000e+00
  +9.94992947831206286935e-01+j4.22170431668140826165e-05
  +9.94992851602817474088e-01-j6.64046840298422374679e-04
  +9.94992413175771250877e-01-j1.20398179073436016953e-03
  +9.94991762883160268949e-01-j1.70233462128081586458e-03
  +9.94990916780908007944e-01-j2.18405474753136010641e-03
  +9.94989878829593443754e-01-j2.65745867694554748981e-03
  +9.94988650384893702494e-01-j3.12611065683334127599e-03
  +9.94987232011619093797e-01-j3.59179283683209006964e-03
  +9.94985623978058564276e-01-j4.05549532313864528887e-03
  +9.94983826423925243887e-01-j4.51781220021804565817e-03
  +9.94981839426848813090e-01-j4.97912154067549263953e-03
  +9.94979663031856031985e-01-j5.43967541019339893144e-03
  +9.94977297265649207603e-01-j5.89964833172876637613e-03
  +9.94974742144017043621e-01-j6.35916497933990913088e-03
  +9.94971997675908492731e-01-j6.81831679448299896734e-03
  +9.94969063865788649892e-01-j7.27717237119587887634e-03
  +9.94965940715055285892e-01-j7.73578417592431667044e-03
  +9.94962628222913147980e-01-j8.19419302740493488146e-03
  +9.94959126386943393250e-01-j8.65243116184812033342e-03
</dep>
<dep _net3.v acfrequency>
  -0.00000000000000000000e+00
  +0.00000000000000000000e+00
  +0.00000000000000000000e+00
  +0.00000000000000000000e+00
  +0.00000000000000000000e+00
  +0.00000000000000000000e+00
  +0.00000000000000000000e+00
  +0.00000000000000000000e+00
  +0.00000000000000000000e+00
  +0.00000000000000000000e+00
  +0.00000000000000000000e+00
  +0.00000000000000000000e+00
  +0.00000000000000000000e+00
  +0.00000000000000000000e+00
  +0.00000000000000000000e+00
  +0.00000000000000000000e+00
  +0.00000000000000000000e+00
  +0.00000000000000000000e+00
  +0.00000000000000000000e+00
  +0.00000000000000000000e+00
</dep>
<dep _net2.v acfrequency>
  +0.00000000000000000000e+00
  +0.00000000000000000000e+00
  +0.00000000000000000000e+00
  +0.00000000000000000000e+00
  +0.00000000000000000000e+00
  +0.00000000000000000000e+00
  +0.00000000000000000000e+00
  +0.00000000000000000000e+00
  +0.00000000000000000000e+00
  +0.00000000000000000000e+00
  +0.00000000000000000000e+00
  +0.00000000000000000000e+00
  +0.00000000000000000000e+00
  +0.00000000000000000000e+00
  +0.00000000000000000000e+00
  +0.00000000000000000000e+00
  +0.00000000000000000000e+00
  +0.00000000000000000000e+00
  +0.00000000000000000000e+00
  +0.00000000000000000000e+00
</dep>
<dep _net0.v acfrequency>
  +0.00000000000000000000e+00
  +9.99999748492176210313e-01+j5.01498139155384659027e-04
  +9.99999937117499460015e-01+j2.50749116879070421682e-04
  +9.99999972048122853785e-01+j1.67166083762763928444e-04
  +9.99999984273841624471e-01+j1.25374564359227030907e-04
  +9.99999989932602750820e-01+j1.00299652059449712072e-04
  +9.99999993006498000270e-01+j8.35830436443814328573e-05
  +9.99999994859959606686e-01+j7.16426089754675088361e-05
  +9.99999996062927665186e-01+j6.26872829336266867983e-05
  +9.99999996887678488378e-01+j5.57220293250122733486e-05
  +9.99999997477618030040e-01+j5.01498264268412236033e-05
  +9.99999997914106431018e-01+j4.55907513217963106245e-05
  +9.99999998246091759135e-01+j4.17915220636416728794e-05
  +9.99999998504454423731e-01+j3.85767896119793354814e-05
  +9.99999998709457216250e-01+j3.58213046518550751185e-05
  +9.99999998874843143426e-01+j3.34332176854202842153e-05
  +9.99999999010199314142e-01+j3.13436415891659922450e-05
  +9.99999999122379246153e-01+j2.94998979744323305829e-05
  +9.99999999216387158718e-01+j2.78610147611052169636e-05
  +9.99999999295945851685e-01+j2.63946455701180929254e-05
</dep>
<dep INPUT.v acfrequency>
  +1.00000000000000000000e+00
  +1.00000000000000000000e+00
  +1.00000000000000000000e+00
  +1.00000000000000000000e+00
  +1.00000000000000000000e+00
  +1.00000000000000000000e+00
  +1.00000000000000000000e+00
  +1.00000000000000000000e+00
  +1.00000000000000000000e+00
  +1.00000000000000000000e+00
  +1.00000000000000000000e+00
  +1.00000000000000000000e+00
  +1.00000000000000000000e+00
  +1.00000000000000000000e+00
  +1.00000000000000000000e+00
  +1.00000000000000000000e+00
  +1.00000000000000000000e+00
  +1.00000000000000000000e+00
  +1.00000000000000000000e+00
  +1.00000000000000000000e+00
</dep>
<indep V1.I 1>
  +0.00000000000000000000e+00
</indep>
<indep V2.I 1>
  -1.72124299065436608958e-02
</indep>
<indep V3.I 1>
  -1.72132081795393875046e-02
</indep>
<indep POSTGAIN.V 1>
  -3.12270028256704935792e-04
</indep>
<indep _net9.V 1>
  -3.20823745533646456467e-04
</indep>
<indep _net10.V 1>
  -3.20823708144805951926e-04
</indep>
<indep _net11.V 1>
  -3.20823708144805951926e-04
</indep>
<indep _net1.V 1>
  -3.31804912007182606967e-04
</indep>
<indep _net8.V 1>
  -3.31804912008290011066e-04
</indep>
<indep _net7.V 1>
  -3.31804912008290011066e-04
</indep>
<indep _net6.V 1>
  +0.00000000000000000000e+00
</indep>
<indep _net4.V 1>
  -3.20823708306910385536e-04
</indep>
<indep _net5.V 1>
  -3.20823708306910385536e-04
</indep>
<indep _net3.V 1>
  -9.00000000000000000000e+00
</indep>
<indep _net2.V 1>
  +9.00000000000000000000e+00
</indep>
<indep _net0.V 1>
  -3.31804912007182606967e-04
</indep>
<indep INPUT.V 1>
  +0.00000000000000000000e+00
</indep>
