<Qucs Dataset 0.0.22>
<indep frequency 20>
0.000000000000e+00
1.578947368421e+03
3.157894736842e+03
4.736842105263e+03
6.315789473684e+03
7.894736842105e+03
9.473684210526e+03
1.105263157895e+04
1.263157894737e+04
1.421052631579e+04
1.578947368421e+04
1.736842105263e+04
1.894736842105e+04
2.052631578947e+04
2.210526315789e+04
2.368421052632e+04
2.526315789474e+04
2.684210526316e+04
2.842105263158e+04
3.000000000000e+04
</indep>
<dep ac.v(buffer) frequency>
0.000000000000e+00+j0.000000000000e+00
-1.454847603748e-15-j1.212422243026e-16
-1.464607133613e-15-j2.305185597774e-17
-1.464509228873e-15+j2.682718381800e-17
-1.462213849827e-15+j6.432540191737e-17
-1.458684464374e-15+j9.672977970448e-17
-1.454170123936e-15+j1.264537543783e-16
-1.448767688139e-15+j1.545111681902e-16
-1.442529521629e-15+j1.813906388609e-16
-1.435492766742e-15+j2.073480200352e-16
-1.427689178362e-15+j2.325236806388e-16
-1.419148901845e-15+j2.569959459996e-16
-1.409902034373e-15+j2.808078945253e-16
-1.399979270193e-15+j3.039818345834e-16
-1.389412130809e-15+j3.265276064476e-16
-1.378232992603e-15+j3.484475787984e-16
-1.366475010473e-15+j3.697397758893e-16
-1.354171987136e-15+j3.903998960073e-16
-1.341358214390e-15+j4.104226448937e-16
-1.328068301601e-15+j4.298026297883e-16
</dep>
<dep ac.v(input) frequency>
1.000000000000e+00+j0.000000000000e+00
1.000000000000e+00+j0.000000000000e+00
1.000000000000e+00+j0.000000000000e+00
1.000000000000e+00+j0.000000000000e+00
1.000000000000e+00+j0.000000000000e+00
1.000000000000e+00+j0.000000000000e+00
1.000000000000e+00+j0.000000000000e+00
1.000000000000e+00+j0.000000000000e+00
1.000000000000e+00+j0.000000000000e+00
1.000000000000e+00+j0.000000000000e+00
1.000000000000e+00+j0.000000000000e+00
1.000000000000e+00+j0.000000000000e+00
1.000000000000e+00+j0.000000000000e+00
1.000000000000e+00+j0.000000000000e+00
1.000000000000e+00+j0.000000000000e+00
1.000000000000e+00+j0.000000000000e+00
1.000000000000e+00+j0.000000000000e+00
1.000000000000e+00+j0.000000000000e+00
1.000000000000e+00+j0.000000000000e+00
1.000000000000e+00+j0.000000000000e+00
</dep>
<indep time 63>
0.000000000000e+00
5.000000000000e-06
5.421402793091e-06
6.264208379272e-06
7.949819551635e-06
1.132104189636e-05
1.806348658581e-05
3.154837596472e-05
5.851815472253e-05
1.124577122381e-04
2.203368272694e-04
4.360950573319e-04
8.676115174568e-04
1.494733534897e-03
2.394384337589e-03
3.394384337589e-03
4.394384337589e-03
5.394384337589e-03
6.394384337589e-03
7.394384337589e-03
8.394384337589e-03
9.394384337589e-03
1.039438433759e-02
1.139438433759e-02
1.239438433759e-02
1.339438433759e-02
1.439438433759e-02
1.539438433759e-02
1.639438433759e-02
1.739438433759e-02
1.839438433759e-02
1.939438433759e-02
2.039438433759e-02
2.139438433759e-02
2.239438433759e-02
2.339438433759e-02
2.439438433759e-02
2.539438433759e-02
2.639438433759e-02
2.739438433759e-02
2.839438433759e-02
2.939438433759e-02
3.039438433759e-02
3.139438433759e-02
3.239438433759e-02
3.339438433759e-02
3.439438433759e-02
3.539438433759e-02
3.639438433759e-02
3.739438433759e-02
3.839438433759e-02
3.939438433759e-02
4.039438433759e-02
4.139438433759e-02
4.239438433759e-02
4.339438433759e-02
4.439438433759e-02
4.539438433759e-02
4.639438433759e-02
4.739438433759e-02
4.839438433759e-02
4.939438433759e-02
5.000000000000e-02
</indep>
<dep tran.v(buffer) time>
7.355153029369e+00
7.355153029369e+00
7.355153029370e+00
7.355153029370e+00
7.355153029369e+00
7.355153029369e+00
7.355153029369e+00
7.355153029370e+00
7.355153029370e+00
7.355153029369e+00
7.355153029369e+00
7.355153029369e+00
7.355153029369e+00
7.355153029369e+00
7.355153029369e+00
7.355153029369e+00
7.355153029369e+00
7.355153029370e+00
7.355153029369e+00
7.355153029369e+00
7.355153029370e+00
7.355153029369e+00
7.355153029369e+00
7.355153029369e+00
7.355153029369e+00
7.355153029370e+00
7.355153029370e+00
7.355153029370e+00
7.355153029369e+00
7.355153029369e+00
7.355153029369e+00
7.355153029369e+00
7.355153029370e+00
7.355153029369e+00
7.355153029370e+00
7.355153029369e+00
7.355153029370e+00
7.355153029369e+00
7.355153029369e+00
7.355153029370e+00
7.355153029369e+00
7.355153029369e+00
7.355153029369e+00
7.355153029369e+00
7.355153029369e+00
7.355153029369e+00
7.355153029370e+00
7.355153029369e+00
7.355153029370e+00
7.355153029369e+00
7.355153029369e+00
7.355153029369e+00
7.355153029369e+00
7.355153029369e+00
7.355153029369e+00
7.355153029370e+00
7.355153029369e+00
7.355153029369e+00
7.355153029369e+00
7.355153029369e+00
7.355153029369e+00
7.355153029369e+00
7.355153029369e+00
</dep>
<dep tran.v(input) time>
0.000000000000e+00
3.141587485880e-03
3.406361249847e-03
3.935908042802e-03
4.994998169050e-03
7.113160424995e-03
1.134937968784e-02
1.982113112463e-02
3.675975717150e-02
7.060048207300e-02
1.379999037179e-01
2.705907353992e-01
5.185347198132e-01
8.070675769692e-01
9.977989646637e-01
8.462132902633e-01
3.714029007141e-01
-2.452707733875e-01
-7.682593485021e-01
-9.977989646637e-01
-8.462132902633e-01
-3.714029007141e-01
2.452707733875e-01
7.682593485021e-01
9.977989646637e-01
8.462132902633e-01
3.714029007141e-01
-2.452707733875e-01
-7.682593485021e-01
-9.977989646637e-01
-8.462132902633e-01
-3.714029007141e-01
2.452707733875e-01
7.682593485021e-01
9.977989646637e-01
8.462132902632e-01
3.714029007141e-01
-2.452707733875e-01
-7.682593485021e-01
-9.977989646637e-01
-8.462132902632e-01
-3.714029007141e-01
2.452707733875e-01
7.682593485021e-01
9.977989646637e-01
8.462132902632e-01
3.714029007141e-01
-2.452707733875e-01
-7.682593485021e-01
-9.977989646637e-01
-8.462132902632e-01
-3.714029007141e-01
2.452707733875e-01
7.682593485021e-01
9.977989646637e-01
8.462132902632e-01
3.714029007141e-01
-2.452707733876e-01
-7.682593485021e-01
-9.977989646637e-01
-8.462132902632e-01
-3.714029007141e-01
-1.224646799147e-15
</dep>
