<Qucs Dataset 1.0.1>
<indep time 222>
0.000000000000e+00
2.500000000000e-06
2.524827797498e-06
2.574483392495e-06
2.673794582488e-06
2.872416962474e-06
3.269661722447e-06
4.064151242393e-06
5.653130282284e-06
7.951096792848e-06
1.051161478549e-05
1.432892933124e-05
1.934606340242e-05
2.699955051241e-05
3.840795487603e-05
5.866112711906e-05
8.088254916305e-05
1.094765708024e-04
1.384387596971e-04
1.813357627883e-04
2.493742600614e-04
3.418546115874e-04
4.796238821890e-04
6.919429412819e-04
9.419429412819e-04
1.191942941282e-03
1.441942941282e-03
1.691942941282e-03
1.941942941282e-03
2.191942941282e-03
2.441942941282e-03
2.691942941282e-03
2.941942941282e-03
3.191942941282e-03
3.441942941282e-03
3.691942941282e-03
3.941942941282e-03
4.191942941282e-03
4.441942941282e-03
4.691942941282e-03
4.941942941282e-03
5.191942941282e-03
5.441942941282e-03
5.691942941282e-03
5.941942941282e-03
6.191942941282e-03
6.441942941282e-03
6.691942941282e-03
6.941942941282e-03
7.191942941282e-03
7.441942941282e-03
7.691942941282e-03
7.941942941282e-03
8.191942941282e-03
8.441942941282e-03
8.691942941282e-03
8.941942941282e-03
9.191942941282e-03
9.441942941282e-03
9.691942941282e-03
9.941942941282e-03
1.019194294128e-02
1.044194294128e-02
1.069194294128e-02
1.094194294128e-02
1.119194294128e-02
1.144194294128e-02
1.169194294128e-02
1.194194294128e-02
1.219194294128e-02
1.244194294128e-02
1.269194294128e-02
1.294194294128e-02
1.319194294128e-02
1.344194294128e-02
1.369194294128e-02
1.394194294128e-02
1.419194294128e-02
1.444194294128e-02
1.469194294128e-02
1.494194294128e-02
1.519194294128e-02
1.544194294128e-02
1.569194294128e-02
1.594194294128e-02
1.619194294128e-02
1.644194294128e-02
1.669194294128e-02
1.694194294128e-02
1.719194294128e-02
1.744194294128e-02
1.769194294128e-02
1.794194294128e-02
1.819194294128e-02
1.844194294128e-02
1.869194294128e-02
1.894194294128e-02
1.919194294128e-02
1.944194294128e-02
1.969194294128e-02
1.994194294128e-02
2.019194294128e-02
2.044194294128e-02
2.069194294128e-02
2.094194294128e-02
2.119194294128e-02
2.144194294128e-02
2.169194294128e-02
2.194194294128e-02
2.219194294128e-02
2.244194294128e-02
2.269194294128e-02
2.294194294128e-02
2.319194294128e-02
2.344194294128e-02
2.369194294128e-02
2.394194294128e-02
2.419194294128e-02
2.444194294128e-02
2.469194294128e-02
2.494194294128e-02
2.519194294128e-02
2.544194294128e-02
2.569194294128e-02
2.594194294128e-02
2.619194294128e-02
2.644194294128e-02
2.669194294128e-02
2.694194294128e-02
2.719194294128e-02
2.744194294128e-02
2.769194294128e-02
2.794194294128e-02
2.819194294128e-02
2.844194294128e-02
2.869194294128e-02
2.894194294128e-02
2.919194294128e-02
2.944194294128e-02
2.969194294128e-02
2.994194294128e-02
3.019194294128e-02
3.044194294128e-02
3.069194294128e-02
3.094194294128e-02
3.119194294128e-02
3.144194294128e-02
3.169194294128e-02
3.194194294128e-02
3.219194294128e-02
3.244194294128e-02
3.269194294128e-02
3.294194294128e-02
3.319194294128e-02
3.344194294128e-02
3.369194294128e-02
3.394194294128e-02
3.419194294128e-02
3.444194294128e-02
3.469194294128e-02
3.494194294128e-02
3.519194294128e-02
3.544194294128e-02
3.569194294128e-02
3.594194294128e-02
3.619194294128e-02
3.644194294128e-02
3.669194294128e-02
3.694194294128e-02
3.719194294128e-02
3.744194294128e-02
3.769194294128e-02
3.794194294128e-02
3.819194294128e-02
3.844194294128e-02
3.869194294128e-02
3.894194294128e-02
3.919194294128e-02
3.944194294128e-02
3.969194294128e-02
3.994194294128e-02
4.019194294128e-02
4.044194294128e-02
4.069194294128e-02
4.094194294128e-02
4.119194294128e-02
4.144194294128e-02
4.169194294128e-02
4.194194294128e-02
4.219194294128e-02
4.244194294128e-02
4.269194294128e-02
4.294194294128e-02
4.319194294128e-02
4.344194294128e-02
4.369194294128e-02
4.394194294128e-02
4.419194294128e-02
4.444194294128e-02
4.469194294128e-02
4.494194294128e-02
4.519194294128e-02
4.544194294128e-02
4.569194294128e-02
4.594194294128e-02
4.619194294128e-02
4.644194294128e-02
4.669194294128e-02
4.694194294128e-02
4.719194294128e-02
4.744194294128e-02
4.769194294128e-02
4.794194294128e-02
4.819194294128e-02
4.844194294128e-02
4.869194294128e-02
4.894194294128e-02
4.919194294128e-02
4.944194294128e-02
4.969194294128e-02
4.994194294128e-02
5.000000000000e-02
</indep>
<dep tran.v(bufferout) time>
0.000000000000e+00
1.526205336630e-03
1.541481450803e-03
1.572196931197e-03
1.634023854321e-03
1.757581806072e-03
2.004575982090e-03
2.498700662443e-03
3.486812288677e-03
4.915898271031e-03
6.508151609579e-03
8.881985257882e-03
1.200172369944e-02
1.676055390379e-02
2.385307700435e-02
3.644055583118e-02
5.024344690842e-02
6.798856897304e-02
8.593807008224e-02
1.124667965631e-01
1.543610078692e-01
2.108238269668e-01
2.935294330909e-01
4.163987709113e-01
5.513178869767e-01
6.725402081454e-01
7.770807762533e-01
8.623656700222e-01
9.262948293769e-01
9.672943199114e-01
9.843545343439e-01
9.770556063621e-01
9.455771953609e-01
8.906946163930e-01
8.137591959672e-01
7.166655512822e-01
6.018043855844e-01
4.720041739295e-01
3.304609644349e-01
1.806602330548e-01
2.629050793399e-02
-1.288469031314e-01
-2.809320644686e-01
-4.262199216058e-01
-5.611330671633e-01
-6.823492788881e-01
-7.868838732590e-01
-8.721626494061e-01
-9.360858232209e-01
-9.770791827005e-01
-9.941333983653e-01
-9.868283284380e-01
-9.553439117000e-01
-9.004551892588e-01
-8.235137676762e-01
-7.264139905943e-01
-6.115468407441e-01
-4.817405187970e-01
-3.401913507053e-01
-1.903845363742e-01
-3.600887962063e-02
1.191345896121e-01
2.712256618919e-01
4.165195617904e-01
5.514386091640e-01
6.726608608632e-01
7.772013603632e-01
8.624861847412e-01
9.264152755650e-01
9.674146967848e-01
9.844748427633e-01
9.771758455432e-01
9.456973661647e-01
8.908147180347e-01
8.138792293080e-01
7.167855155372e-01
6.019242816149e-01
4.721240009504e-01
3.305807233072e-01
1.807799229937e-01
2.641012980019e-02
-1.287273501225e-01
-2.808125794567e-01
-4.261005053752e-01
-5.610137188541e-01
-6.822299992843e-01
-7.867646615011e-01
-8.720435062779e-01
-9.359667478629e-01
-9.769601758970e-01
-9.940144592564e-01
-9.867094578081e-01
-9.552251086892e-01
-9.003364546520e-01
-8.233951006127e-01
-7.262953918598e-01
-6.114283094772e-01
-4.816220557843e-01
-3.400729550845e-01
-1.902662089329e-01
-3.589061949539e-02
1.192527816325e-01
2.713437866719e-01
4.166376185403e-01
5.515565987491e-01
6.727787824927e-01
7.773192149034e-01
8.626039714005e-01
9.265329952104e-01
9.675323486239e-01
9.845924276638e-01
9.772933627119e-01
9.458148164698e-01
8.909321006828e-01
8.139965451673e-01
7.169027638140e-01
6.020414631774e-01
4.722411150051e-01
3.306977707220e-01
1.808969029753e-01
2.652704321606e-02
-1.286105040654e-01
-2.806957998912e-01
-4.259837930942e-01
-5.608970729907e-01
-6.821134206312e-01
-7.866481491917e-01
-8.719270611048e-01
-9.358503689597e-01
-9.768438640560e-01
-9.938982136114e-01
-9.865932791518e-01
-9.551089961549e-01
-9.002204090328e-01
-8.232791210414e-01
-7.261794791304e-01
-6.113124627217e-01
-4.815062757974e-01
-3.399572409973e-01
-1.901505615412e-01
-3.577503792945e-02
1.193682965760e-01
2.714592358638e-01
4.167530011827e-01
5.516719157139e-01
6.728940329811e-01
7.774343997881e-01
8.627190898817e-01
9.266480481617e-01
9.676473352447e-01
9.847073488282e-01
9.774082176190e-01
9.459296059938e-01
8.910468240225e-01
8.141112031970e-01
7.170173557325e-01
6.021559898589e-01
4.723555756484e-01
3.308121662010e-01
1.810112324890e-01
2.664130763813e-02
-1.284963055358e-01
-2.805816663808e-01
-4.258697254035e-01
-5.607830702469e-01
-6.819994836345e-01
-7.865342770695e-01
-8.718132546572e-01
-9.357366273143e-01
-9.767301880131e-01
-9.937846022984e-01
-9.864797333691e-01
-9.549955150298e-01
-9.001069933661e-01
-8.231657699599e-01
-7.260661934355e-01
-6.111992415395e-01
-4.813931199302e-01
-3.398441495704e-01
-1.900375353577e-01
-3.566207611372e-02
1.194811932198e-01
2.715720682122e-01
4.168657684306e-01
5.517846187389e-01
6.730066709769e-01
7.775469736334e-01
8.628315987692e-01
9.267604929708e-01
9.677597151675e-01
9.848196647446e-01
9.775204687205e-01
9.460417931607e-01
8.911589464460e-01
8.142232617574e-01
7.171293496210e-01
6.022679199556e-01
4.724674411446e-01
3.309239679766e-01
1.811229697356e-01
2.675298123504e-02
-1.283846963966e-01
-2.804701208204e-01
-4.257582442296e-01
-5.606716525811e-01
-6.818881302841e-01
-7.864229871565e-01
-8.717020289888e-01
-9.356254650126e-01
-9.766190898852e-01
-9.936735674664e-01
-9.863687626405e-01
-9.548846075263e-01
-8.999961498955e-01
-8.230549896437e-01
-7.259554770820e-01
-6.110885882695e-01
-4.812825305528e-01
-3.397336232055e-01
-1.899270728155e-01
-3.555167651312e-02
5.489114379429e-04
</dep>
<dep tran.v(eqout) time>
0.000000000000e+00
7.111532616825e-04
7.182864858115e-04
7.326945099643e-04
7.623307470691e-04
8.243637245150e-04
9.572877040742e-04
1.256052960671e-03
1.976250250058e-03
3.277601241322e-03
5.047924319371e-03
8.232806880001e-03
1.329906389059e-02
2.272573754246e-02
4.012832913633e-02
7.928299280459e-02
1.321141737260e-01
2.112830779522e-01
3.007328476084e-01
4.440579890957e-01
6.857760046045e-01
1.024974284102e+00
1.529061099627e+00
2.276631066199e+00
3.089844272196e+00
3.811373296402e+00
4.423627098186e+00
4.911905937244e+00
5.264514887627e+00
5.473100646274e+00
5.532846640543e+00
5.442593607930e+00
5.204868459752e+00
4.825821710843e+00
4.315076841158e+00
3.685492887656e+00
2.952848610009e+00
2.135453526397e+00
1.253697837727e+00
3.295499228435e-01
-6.139838619042e-01
-1.553426099488e+00
-2.465405697993e+00
-3.327233782469e+00
-4.117461687496e+00
-4.816409505868e+00
-5.406650008963e+00
-5.873438166842e+00
-6.205073570114e+00
-6.393188929197e+00
-6.432955466887e+00
-6.323202208853e+00
-6.066444189699e+00
-5.668820910441e+00
-5.139944547183e+00
-4.492663652550e+00
-3.742746176798e+00
-2.908491595953e+00
-2.010279725303e+00
-1.070069292759e+00
-1.108566614520e-01
8.438900194058e-01
1.770809248257e+00
2.647221006330e+00
3.451685776904e+00
4.164532051796e+00
4.768341266116e+00
5.248376294964e+00
5.592944884998e+00
5.793687151575e+00
5.845781980577e+00
5.748065337079e+00
5.503059480109e+00
5.116910453867e+00
4.599237300701e+00
3.962894804653e+00
3.223657506893e+00
2.399830876986e+00
1.511801105957e+00
5.815327187312e-01
-3.679717402084e-01
-1.313238522114e+00
-2.230900158977e+00
-3.098271267163e+00
-3.893906626707e+00
-4.598129653069e+00
-5.193516393619e+00
-5.665324980392e+00
-6.001858119043e+00
-6.194751528877e+00
-6.239179394855e+00
-6.133973605717e+00
-5.881652012990e+00
-5.488356841900e+00
-4.963702947466e+00
-4.320541474293e+00
-3.574642920418e+00
-2.744309227949e+00
-1.849922635332e+00
-9.134442167019e-01
4.212736009443e-02
9.933217137119e-01
1.916775150457e+00
2.789805528020e+00
3.590971244558e+00
4.300598771707e+00
4.901267561186e+00
5.378238566279e+00
5.719817646972e+00
5.917643090417e+00
5.966891987790e+00
5.866398565040e+00
5.618683373943e+00
5.229890804346e+00
4.709638274511e+00
4.070778994797e+00
3.329085961388e+00
2.502863146926e+00
1.612495272683e+00
6.799454397033e-01
-2.717852057254e-01
-1.219224269240e+00
-2.139005612964e+00
-3.008445141528e+00
-3.806098900363e+00
-4.512291530281e+00
-5.109600282484e+00
-5.583284454508e+00
-5.921647897278e+00
-6.116327438664e+00
-6.162498353203e+00
-6.058993584033e+00
-5.808332019291e+00
-5.416656887065e+00
-4.893584028617e+00
-4.251965542387e+00
-3.507572864753e+00
-2.678708845020e+00
-1.785756614417e+00
-8.506781099144e-01
1.035271511802e-01
1.053387966891e+00
1.975539835259e+00
2.847299833490e+00
3.647225590656e+00
4.355642836090e+00
4.955130289690e+00
5.430948198762e+00
5.771401726906e+00
5.968128489854e+00
6.016304916104e+00
5.914764593056e+00
5.666027441882e+00
5.276237245147e+00
4.755010821026e+00
4.115200802345e+00
3.372579614240e+00
2.545450680120e+00
1.654198177841e+00
7.207846861427e-01
-2.317891658138e-01
-1.180051480356e+00
-2.100636611714e+00
-2.970860936843e+00
-3.769280969479e+00
-4.476221799583e+00
-5.074261124016e+00
-5.548658667414e+00
-5.887718704825e+00
-6.083078470247e+00
-6.129913641852e+00
-6.027057548957e+00
-5.777029463852e+00
-5.385972981826e+00
-4.863504309765e+00
-4.222475895260e+00
-3.478659522692e+00
-2.650358373346e+00
-1.757955909704e+00
-8.234143843811e-01
1.302663699924e-01
1.079614851330e+00
2.001266257494e+00
2.872537380358e+00
3.671985563211e+00
4.379936264113e+00
4.978967930868e+00
5.454340552877e+00
5.794359034672e+00
5.990660746790e+00
6.038421871054e+00
5.936475761764e+00
5.687342105207e+00
5.297164462356e+00
4.775559427723e+00
4.135379423491e+00
3.392396661817e+00
2.564914365885e+00
1.673316510745e+00
7.395654848188e-01
-2.133382758483e-01
-1.161923054474e+00
-2.082823389187e+00
-2.953355828864e+00
-3.752077062364e+00
-4.459312343038e+00
-5.057639534521e+00
-5.532318516730e+00
-5.871653723539e+00
-6.067282536512e+00
-6.114380785093e+00
-6.011781938825e+00
-5.762005414086e+00
-5.371194939409e+00
-4.848966858940e+00
-4.208173746870e+00
-3.464587518351e+00
-2.636511474947e+00
-1.744329203745e+00
-8.100030716261e-01
1.434669700328e-01
3.654220548738e-01
</dep>
<dep tran.v(gainout) time>
-3.775368409076e-04
2.770101049009e-03
2.801667229495e-03
2.865386320386e-03
2.995833111862e-03
3.265460836346e-03
3.835097373452e-03
5.087657227018e-03
7.968858803734e-03
1.280574498558e-02
1.882750571490e-02
2.850690340958e-02
4.187398303649e-02
6.277305715486e-02
9.419460324229e-02
1.500108164975e-01
2.111825061059e-01
2.897788494420e-01
3.692260908089e-01
4.865451091756e-01
6.715696068211e-01
9.204524053930e-01
1.283971367478e+00
1.821572598938e+00
2.407998760178e+00
2.930385525279e+00
3.375906667782e+00
3.733627386495e+00
3.994775411818e+00
4.152955337924e+00
4.204307609194e+00
4.147602202272e+00
3.984270134694e+00
3.718367142765e+00
3.356474792690e+00
2.907537559941e+00
2.382643356101e+00
1.794749836299e+00
1.158365932504e+00
4.891940832114e-01
-1.962559676955e-01
-8.810740737742e-01
-1.548365750446e+00
-2.181668437890e+00
-2.765356649892e+00
-3.285026893210e+00
-3.727852203814e+00
-4.082898074882e+00
-4.341391649264e+00
-4.496937751465e+00
-4.545676369218e+00
-4.486377654964e+00
-4.320472273050e+00
-4.052016076510e+00
-3.687590348459e+00
-3.236139611044e+00
-2.708751531198e+00
-2.118383732049e+00
-1.479544917230e+00
-8.079374154911e-01
-1.200707509213e-01
5.671451040814e-01
1.236815869709e+00
1.872479200876e+00
2.458509785454e+00
2.980504358502e+00
3.425636082733e+00
3.782970670902e+00
4.043735335847e+00
4.201535102282e+00
4.252509974195e+00
4.195430288497e+00
4.031726687702e+00
3.765455208892e+00
3.403197098693e+00
2.953897082989e+00
2.428642800821e+00
1.840392115093e+00
1.203653725145e+00
5.341302411603e-01
-1.516687917354e-01
-8.368330859440e-01
-1.504468326893e+00
-2.138111839436e+00
-2.722138282952e+00
-3.242144070720e+00
-3.685302363561e+00
-4.040678579653e+00
-4.299499969065e+00
-4.455371296928e+00
-4.504432643198e+00
-4.445454114147e+00
-4.279866453588e+00
-4.011725479542e+00
-3.647612543725e+00
-3.196472142698e+00
-2.669392002732e+00
-2.079329729329e+00
-1.440794077560e+00
-7.694873652616e-01
-8.191916121971e-02
6.050005674279e-01
1.274377501930e+00
1.909749297708e+00
2.495490608605e+00
3.017198166196e+00
3.462045103371e+00
3.819097126057e+00
4.079581420863e+00
4.237103002890e+00
4.287801852967e+00
4.230448296081e+00
4.066472954214e+00
3.799931850612e+00
3.437406213621e+00
2.987840753714e+00
2.462323093587e+00
1.873811079445e+00
1.236813395946e+00
5.670326355305e-01
-1.190216699229e-01
-8.044392514068e-01
-1.472325806347e+00
-2.106218678866e+00
-2.690492539251e+00
-3.210743820596e+00
-3.654145693672e+00
-4.009763596897e+00
-4.268824789445e+00
-4.424934057023e+00
-4.474231487935e+00
-4.415487209287e+00
-4.250131972560e+00
-3.982221616810e+00
-3.618337500802e+00
-3.167424142275e+00
-2.640569273993e+00
-2.050730522733e+00
-1.412416649547e+00
-7.413299936125e-01
-5.398012922545e-02
6.327229551076e-01
1.301884935552e+00
1.937043446166e+00
2.522573136097e+00
3.044070715592e+00
3.488709313199e+00
3.845554613579e+00
4.105833799319e+00
4.263151864340e+00
4.313648785742e+00
4.256094867441e+00
4.091920727948e+00
3.825182369575e+00
3.462461017432e+00
3.012701361207e+00
2.486991020574e+00
1.898287821120e+00
1.261100444675e+00
5.911314632370e-01
-9.510959395780e-02
-7.807124781647e-01
-1.448782889276e+00
-2.082858191495e+00
-2.667313057406e+00
-3.187743940002e+00
-3.631324012180e+00
-3.987118732085e+00
-4.246355360844e+00
-4.402638703724e+00
-4.452108850808e+00
-4.393535948606e+00
-4.228350750196e+00
-3.960609113891e+00
-3.596892399869e+00
-3.146145144989e+00
-2.619455083243e+00
-2.029779860393e+00
-1.391628238536e+00
-7.207025757040e-01
-3.351244705648e-02
6.530321401704e-01
1.322036861459e+00
1.957039332262e+00
2.542414201217e+00
3.063758160097e+00
3.508244337096e+00
3.864938398540e+00
4.125067526813e+00
4.282236697643e+00
4.332585888062e+00
4.274885383947e+00
4.110565803867e+00
3.843683132250e+00
3.480818594379e+00
3.030916862226e+00
2.505065555739e+00
1.916222482960e+00
1.278896326092e+00
6.087896397597e-01
-7.758804633647e-02
-7.633265006525e-01
-1.431531422525e+00
-2.065740193191e+00
-2.650327484583e+00
-3.170889766569e+00
-3.614600211297e+00
-3.970524293634e+00
-4.229889273855e+00
-4.386299973807e+00
-4.435896482609e+00
-4.377448963222e+00
-4.212388167642e+00
-3.944769970513e+00
-3.581175730808e+00
-3.130550001606e+00
-2.603980515563e+00
-2.014424934564e+00
-1.376392019234e+00
-7.055841436339e-01
-1.851088131896e-02
1.416139310942e-01
</dep>
<dep tran.v(input) time>
0.000000000000e+00
1.570795680831e-03
1.586395426639e-03
1.617594917093e-03
1.679993893246e-03
1.804791825686e-03
2.054387604297e-03
2.553578762013e-03
3.551959044049e-03
4.995800673359e-03
6.604594340418e-03
9.003010197773e-03
1.215519079342e-02
1.696350423162e-02
2.413008749318e-02
3.684952851445e-02
5.079813203453e-02
6.873192692062e-02
8.687399098584e-02
1.136902676121e-01
1.560461294620e-01
2.131457633943e-01
2.968159179857e-01
4.211932593970e-01
5.578891811303e-01
6.808480196961e-01
7.870421204120e-01
8.738566320802e-01
9.391538933028e-01
9.813260687992e-01
9.993347396472e-01
9.927364726033e-01
9.616937389004e-01
9.069709136673e-01
8.299154544758e-01
7.324247224636e-01
6.168992630061e-01
4.861836963221e-01
3.434966734834e-01
1.923516225435e-01
3.647023627814e-02
-1.203091682422e-01
-2.741261617571e-01
-4.211932593970e-01
-5.578891811303e-01
-6.808480196961e-01
-7.870421204120e-01
-8.738566320802e-01
-9.391538933028e-01
-9.813260687992e-01
-9.993347396472e-01
-9.927364726033e-01
-9.616937389004e-01
-9.069709136673e-01
-8.299154544758e-01
-7.324247224636e-01
-6.168992630061e-01
-4.861836963220e-01
-3.434966734834e-01
-1.923516225435e-01
-3.647023627813e-02
1.203091682422e-01
2.741261617571e-01
4.211932593970e-01
5.578891811303e-01
6.808480196961e-01
7.870421204120e-01
8.738566320802e-01
9.391538933028e-01
9.813260687992e-01
9.993347396472e-01
9.927364726033e-01
9.616937389004e-01
9.069709136673e-01
8.299154544758e-01
7.324247224636e-01
6.168992630061e-01
4.861836963220e-01
3.434966734834e-01
1.923516225435e-01
3.647023627813e-02
-1.203091682422e-01
-2.741261617571e-01
-4.211932593970e-01
-5.578891811303e-01
-6.808480196961e-01
-7.870421204120e-01
-8.738566320802e-01
-9.391538933028e-01
-9.813260687992e-01
-9.993347396472e-01
-9.927364726033e-01
-9.616937389004e-01
-9.069709136673e-01
-8.299154544758e-01
-7.324247224636e-01
-6.168992630061e-01
-4.861836963220e-01
-3.434966734834e-01
-1.923516225435e-01
-3.647023627813e-02
1.203091682422e-01
2.741261617571e-01
4.211932593970e-01
5.578891811303e-01
6.808480196961e-01
7.870421204120e-01
8.738566320802e-01
9.391538933028e-01
9.813260687992e-01
9.993347396472e-01
9.927364726033e-01
9.616937389004e-01
9.069709136673e-01
8.299154544758e-01
7.324247224636e-01
6.168992630061e-01
4.861836963220e-01
3.434966734834e-01
1.923516225435e-01
3.647023627813e-02
-1.203091682422e-01
-2.741261617571e-01
-4.211932593970e-01
-5.578891811303e-01
-6.808480196961e-01
-7.870421204120e-01
-8.738566320802e-01
-9.391538933028e-01
-9.813260687992e-01
-9.993347396472e-01
-9.927364726033e-01
-9.616937389004e-01
-9.069709136673e-01
-8.299154544758e-01
-7.324247224636e-01
